
T6178 000:084 SEGGER J-Link V4.50j Log File (0001ms, 0085ms total)
T6178 000:084 DLL Compiled: Jun 26 2012 09:19:07 (0001ms, 0085ms total)
T6178 000:084 Logging started @ 2017-03-02 15:09 (0001ms, 0085ms total)
T6178 000:085 JLINK_SetWarnOutHandler(...) (0000ms, 0085ms total)
T6178 000:085 JLINK_OpenEx(...)
Firmware: J-Link ARM V8 compiled Jul 17 2014 12:31:18
Hardware: V8.00
S/N: 286370559
Feature(s): RDI,FlashDL,FlashBP,JFlash  returns O.K. (0039ms, 0124ms total)
T6178 000:124 JLINK_SetErrorOutHandler(...) (0000ms, 0124ms total)
T6178 000:124 JLINK_ExecCommand("Device = STM32F103C8", ...)
                JLINK_ExecCommand("map ram 0x20000000 - 0x20004FFF", ...)  returns 0x00 (0000ms, 0000ms total)
                JLINK_AddMirrorAreaEx(Addr = 0x00000000, Size = 0x00000000) (0000ms, 0000ms total)
              Device "STM32F103C8" selected (64 KB flash, 20 KB RAM).  returns 0x00 (0003ms, 0127ms total)
T6178 000:127 JLINK_ExecCommand("ProjectFile = "E:\Project\Optical\坚果云\我的坚果云\程序文件\控制系统算法1.0（git管理）\CleanAssistMCU\Project\JLinkSettings.ini"", ...)  returns 0x00 (0000ms, 0127ms total)
T6178 000:127 JLINK_ExecCommand("DisableConnectionTimeout", ...)  returns 0x00 (0000ms, 0127ms total)
T6178 000:127 JLINK_TIF_Select(JLINKARM_TIF_SWD)  returns 0x00 (0000ms, 0127ms total)
T6178 000:127 JLINK_SetSpeed(2000) (0000ms, 0127ms total)
T6178 000:127 JLINK_GetHardwareVersion()  returns 0x13880 (0000ms, 0127ms total)
T6178 000:127 JLINK_GetDLLVersion()  returns 45010 (0000ms, 0127ms total)
T6178 000:127 JLINK_GetFirmwareString(...) (0000ms, 0127ms total)
T6178 000:141 JLINK_GetDLLVersion()  returns 45010 (0000ms, 0127ms total)
T6178 000:141 JLINK_GetCompileDateTime() (0000ms, 0127ms total)
T6178 000:144 JLINK_GetFirmwareString(...) (0000ms, 0127ms total)
T6178 000:146 JLINK_GetHardwareVersion()  returns 0x13880 (0000ms, 0127ms total)
T6178 000:154 JLINK_GetId() >0x108 TIF>Found SWD-DP with ID 0x1BA01477 >0x0D TIF> >0x28 TIF> >0x0D TIF> >0x28 TIF> >0x0D TIF> >0x21 TIF> >0x0D TIF> >0x28 TIF> >0x0D TIF> >0x28 TIF> >0x0D TIF> >0x28 TIF> >0x0D TIF> >0x21 TIF> >0x0D TIF> >0x21 TIF> >0x0D TIF> >0x28 TIF> >0x0D TIF> >0x21 TIF> >0x0D TIF> >0x21 TIF> >0x108 TIF>Found SWD-DP with ID 0x1BA01477 >0x0D TIF> >0x21 TIF> >0x0D TIF> >0x28 TIF> >0x0D TIF> >0x28 TIF> >0x0D TIF> >0x21 TIF> >0x0D TIF> >0x21 TIF> >0x0D TIF> >0x28 TIF> >0x0D TIF> >0x21 TIF>
 >0x0D TIF> >0x21 TIF> >0x0D TIF> >0x21 TIF> >0x0D TIF> >0x21 TIF> >0x0D TIF> >0x21 TIF> >0x0D TIF> >0x28 TIF> >0x0D TIF> >0x28 TIF> >0x0D TIF> >0x21 TIF> >0x0D TIF> >0x21 TIF> >0x0D TIF> >0x28 TIF> >0x0D TIF> >0x21 TIF> >0x0D TIF> >0x21 TIF> >0x0D TIF> >0x28 TIF> >0x0D TIF> >0x21 TIF> >0x0D TIF> >0x21 TIF> >0x0D TIF> >0x28 TIF> >0x0D TIF> >0x28 TIF> >0x0D TIF> >0x28 TIF> >0x0D TIF> >0x21 TIF> >0x0D TIF> >0x21 TIF> >0x0D TIF> >0x28 TIF> >0x0D TIF> >0x21 TIF> >0x0D TIF> >0x21 TIF> >0x0D TIF> >0x21 TIF>
TPIU fitted. >0x0D TIF> >0x28 TIF> >0x0D TIF> >0x21 TIF> >0x0D TIF> >0x21 TIF> >0x0D TIF> >0x28 TIF> >0x0D TIF> >0x21 TIF> >0x0D TIF> >0x21 TIF>FPUnit: 6 code (BP) slots and 2 literal slots >0x0D TIF> >0x28 TIF> >0x0D TIF> >0x21 TIF> >0x0D TIF> >0x21 TIF> >0x0D TIF> >0x28 TIF> >0x0D TIF> >0x21 TIF> >0x0D TIF> >0x21 TIF> >0x0D TIF> >0x28 TIF> >0x0D TIF> >0x21 TIF> >0x0D TIF> >0x21 TIF> >0x0D TIF> >0x28 TIF> >0x0D TIF> >0x21 TIF> >0x0D TIF> >0x21 TIF>Found Cortex-M3 r1p1, Little endian. >0x0D TIF>
 >0x21 TIF>  returns 0x1BA01477 (0045ms, 0172ms total)
T6178 000:199 JLINK_GetDebugInfo(0x100) -- Value=0xE00FF003  returns 0x00 (0000ms, 0172ms total)
T6178 000:201 JLINK_ReadMem (0xE00FFFF0, 0x0010 Bytes, ...) -- CPU is running -- CPU_ReadMem(16 bytes @ 0xE00FFFF0) -- Data:  0D 00 00 00 10 00 00 00 05 00 00 00 B1 00 00 00  returns 0x00 (0001ms, 0173ms total)
T6178 000:202 JLINK_ReadMem (0xE00FFFD0, 0x0020 Bytes, ...) -- CPU is running -- CPU_ReadMem(32 bytes @ 0xE00FFFD0) -- Data:  00 00 00 00 00 00 00 00 00 00 00 00 00 00 00 00 ...  returns 0x00 (0000ms, 0173ms total)
T6178 000:202 JLINK_ReadMem (0xE00FF000, 0x0018 Bytes, ...) -- CPU is running -- CPU_ReadMem(24 bytes @ 0xE00FF000) -- Data:  03 F0 F0 FF 03 20 F0 FF 03 30 F0 FF 03 10 F0 FF ...  returns 0x00 (0001ms, 0174ms total)
T6178 000:203 JLINK_ReadMemU32(0xE000ED00, 0x0001 Items, ...) -- CPU is running -- CPU_ReadMem(4 bytes @ 0xE000ED00) -- Data:  31 C2 1F 41  returns 0x01 (0001ms, 0175ms total)
T6178 000:204 JLINK_SetResetType(JLINKARM_RESET_TYPE_NORMAL)  returns JLINKARM_RESET_TYPE_NORMAL (0000ms, 0175ms total)
T6178 000:204 JLINK_Reset() -- CPU is running -- CPU_WriteMem(4 bytes @ 0xE000EDF0) -- CPU is running -- CPU_WriteMem(4 bytes @ 0xE000EDFC) >0x35 TIF> -- CPU is running -- CPU_WriteMem(4 bytes @ 0xE000ED0C) -- CPU is running -- CPU_ReadMem(4 bytes @ 0xE000EDF0) -- CPU is running -- CPU_ReadMem(4 bytes @ 0xE000EDF0) -- CPU is running -- CPU_WriteMem(4 bytes @ 0xE000EDF0) -- CPU is running -- CPU_WriteMem(4 bytes @ 0xE000EDFC) -- CPU is running -- CPU_ReadMem(4 bytes @ 0xE000EDF0)
 -- CPU_WriteMem(4 bytes @ 0xE0002000) (0019ms, 0194ms total)
T6178 000:223 JLINK_ReadReg(R15)  returns 0x08000144 (0000ms, 0194ms total)
T6178 000:223 JLINK_ReadReg(XPSR)  returns 0x01000000 (0000ms, 0194ms total)
T6178 000:223 JLINK_Halt()  returns 0x00 (0000ms, 0194ms total)
T6178 000:223 JLINK_IsHalted()  returns TRUE (0000ms, 0194ms total)
T6178 000:223 JLINK_ReadMemU32(0xE000EDF0, 0x0001 Items, ...) -- CPU_ReadMem(4 bytes @ 0xE000EDF0) -- Data:  03 00 03 00  returns 0x01 (0000ms, 0194ms total)
T6178 000:223 JLINK_WriteU32(0xE000EDF0, 0xA05F0003) -- CPU_WriteMem(4 bytes @ 0xE000EDF0)  returns 0x00 (0001ms, 0195ms total)
T6178 000:224 JLINK_WriteU32(0xE000EDFC, 0x01000000) -- CPU_WriteMem(4 bytes @ 0xE000EDFC)  returns 0x00 (0000ms, 0195ms total)
T6178 000:227 JLINK_GetHWStatus(...)  returns 0x00 (0000ms, 0195ms total)
T6178 000:228 JLINK_GetNumBPUnits(Type = 0xFFFFFF00)  returns 0x06 (0000ms, 0195ms total)
T6178 000:228 JLINK_GetNumBPUnits(Type = 0xF0)  returns 0x2000 (0000ms, 0195ms total)
T6178 000:228 JLINK_GetNumWPUnits()  returns 0x04 (0000ms, 0195ms total)
T6178 000:229 JLINK_GetSpeed()  returns 0x7D0 (0000ms, 0195ms total)
T6178 000:229 JLINK_ReadMemU32(0xE000E004, 0x0001 Items, ...) -- CPU_ReadMem(4 bytes @ 0xE000E004) -- Data:  01 00 00 00  returns 0x01 (0001ms, 0196ms total)
T6178 000:230 JLINK_ReadMemU32(0xE000E004, 0x0001 Items, ...) -- CPU_ReadMem(4 bytes @ 0xE000E004) -- Data:  01 00 00 00  returns 0x01 (0001ms, 0197ms total)
T6178 000:231 JLINK_WriteMem(0xE0001000, 0x001C Bytes, ...) -- Data:  01 00 00 00 00 00 00 00 00 00 00 00 00 00 00 00 ... -- CPU_WriteMem(28 bytes @ 0xE0001000)  returns 0x1C (0000ms, 0197ms total)
T6178 000:231 JLINK_ReadMem (0xE0001000, 0x001C Bytes, ...) -- CPU_ReadMem(28 bytes @ 0xE0001000) -- Data:  01 00 00 40 00 00 00 00 00 00 00 00 00 00 00 00 ...  returns 0x00 (0001ms, 0198ms total)
T6178 000:232 JLINK_ReadReg(R15)  returns 0x08000144 (0000ms, 0198ms total)
T6178 000:232 JLINK_ReadReg(XPSR)  returns 0x01000000 (0000ms, 0198ms total)
T6178 000:368 JLINK_SetResetType(JLINKARM_RESET_TYPE_NORMAL)  returns JLINKARM_RESET_TYPE_NORMAL (0000ms, 0198ms total)
T6178 000:368 JLINK_Reset() -- CPU_WriteMem(4 bytes @ 0xE000EDF0) -- CPU_WriteMem(4 bytes @ 0xE000EDFC) >0x35 TIF> -- CPU_WriteMem(4 bytes @ 0xE000ED0C) -- CPU_ReadMem(4 bytes @ 0xE000EDF0) -- CPU_ReadMem(4 bytes @ 0xE000EDF0) -- CPU_WriteMem(4 bytes @ 0xE000EDF0) -- CPU_WriteMem(4 bytes @ 0xE000EDFC) -- CPU is running -- CPU_ReadMem(4 bytes @ 0xE000EDF0) -- CPU_WriteMem(4 bytes @ 0xE0002000) (0019ms, 0217ms total)
T6178 000:387 JLINK_ReadReg(R15)  returns 0x08000144 (0000ms, 0217ms total)
T6178 000:387 JLINK_ReadReg(XPSR)  returns 0x01000000 (0000ms, 0217ms total)
T6178 000:387 JLINK_ReadMem (0x08000144, 0x003C Bytes, ...) -- CPU_ReadMem(64 bytes @ 0x08000140) -- Updating C cache (64 bytes @ 0x08000140) -- Read from C cache (60 bytes @ 0x08000144) -- Data:  06 48 80 47 06 48 00 47 FE E7 FE E7 FE E7 FE E7 ...  returns 0x00 (0002ms, 0219ms total)
T6178 004:763 JLINK_ReadMem (0x08001F70, 0x003C Bytes, ...) -- CPU_ReadMem(128 bytes @ 0x08001F40) -- Updating C cache (128 bytes @ 0x08001F40) -- Read from C cache (60 bytes @ 0x08001F70) -- Data:  12 4C 40 27 12 A0 27 70 FF F7 A8 FE 14 4E 00 25 ...  returns 0x00 (0002ms, 0221ms total)
T6178 005:246 JLINK_ReadMem (0x20000029, 0x0001 Bytes, ...) -- CPU_ReadMem(64 bytes @ 0x20000000) -- Updating C cache (64 bytes @ 0x20000000) -- Read from C cache (1 bytes @ 0x20000029) -- Data:  00  returns 0x00 (0002ms, 0223ms total)
T6178 005:257 JLINK_ReadMem (0x20000028, 0x0001 Bytes, ...) -- Read from C cache (1 bytes @ 0x20000028) -- Data:  40  returns 0x00 (0000ms, 0223ms total)
T6178 005:266 JLINK_ReadMem (0x20000040, 0x0001 Bytes, ...) -- CPU_ReadMem(64 bytes @ 0x20000040) -- Updating C cache (64 bytes @ 0x20000040) -- Read from C cache (1 bytes @ 0x20000040) -- Data:  02  returns 0x00 (0001ms, 0224ms total)
T6178 005:279 JLINK_ReadMem (0x20000041, 0x0001 Bytes, ...) -- Read from C cache (1 bytes @ 0x20000041) -- Data:  27  returns 0x00 (0000ms, 0224ms total)
T6178 005:289 JLINK_ReadMem (0x2000002D, 0x0001 Bytes, ...) -- Read from C cache (1 bytes @ 0x2000002D) -- Data:  00  returns 0x00 (0000ms, 0224ms total)
T6178 005:300 JLINK_ReadMem (0x2000001C, 0x0004 Bytes, ...) -- Read from C cache (4 bytes @ 0x2000001C) -- Data:  00 00 00 00  returns 0x00 (0000ms, 0224ms total)
T287C 005:443 JLINK_SetBPEx(Addr = 0x08001F6C, Type = 0xFFFFFFF2)  returns 0x00000001 (0000ms, 0224ms total)
T287C 005:443 JLINK_Go() -- CPU_WriteMem(4 bytes @ 0xE0002008) -- CPU_WriteMem(4 bytes @ 0xE000200C) -- CPU_WriteMem(4 bytes @ 0xE0002010) -- CPU_WriteMem(4 bytes @ 0xE0002014) -- CPU_WriteMem(4 bytes @ 0xE0002018) -- CPU_WriteMem(4 bytes @ 0xE000201C) (0006ms, 0230ms total)
T287C 005:550 JLINK_IsHalted()  returns TRUE (0003ms, 0233ms total)
T287C 005:553 JLINK_Halt()  returns 0x00 (0000ms, 0230ms total)
T287C 005:553 JLINK_IsHalted()  returns TRUE (0000ms, 0230ms total)
T287C 005:553 JLINK_IsHalted()  returns TRUE (0000ms, 0230ms total)
T287C 005:553 JLINK_IsHalted()  returns TRUE (0000ms, 0230ms total)
T287C 005:553 JLINK_ReadReg(R15)  returns 0x08001F6C (0000ms, 0230ms total)
T287C 005:553 JLINK_ReadReg(XPSR)  returns 0x61000000 (0000ms, 0230ms total)
T287C 005:553 JLINK_ClrBPEx(BPHandle = 0x00000001)  returns 0x00 (0000ms, 0230ms total)
T287C 005:553 JLINK_ReadMemU32(0xE000ED30, 0x0001 Items, ...) -- CPU_ReadMem(4 bytes @ 0xE000ED30) -- Data:  03 00 00 00  returns 0x01 (0001ms, 0231ms total)
T287C 005:554 JLINK_ReadMemU32(0xE0001028, 0x0001 Items, ...) -- CPU_ReadMem(4 bytes @ 0xE0001028) -- Data:  00 00 00 00  returns 0x01 (0001ms, 0232ms total)
T287C 005:555 JLINK_ReadMemU32(0xE0001038, 0x0001 Items, ...) -- CPU_ReadMem(4 bytes @ 0xE0001038) -- Data:  00 02 00 00  returns 0x01 (0001ms, 0233ms total)
T287C 005:556 JLINK_ReadMemU32(0xE0001048, 0x0001 Items, ...) -- CPU_ReadMem(4 bytes @ 0xE0001048) -- Data:  00 00 00 00  returns 0x01 (0000ms, 0233ms total)
T287C 005:556 JLINK_ReadMemU32(0xE0001058, 0x0001 Items, ...) -- CPU_ReadMem(4 bytes @ 0xE0001058) -- Data:  00 00 00 00  returns 0x01 (0001ms, 0234ms total)
T287C 005:557 JLINK_ReadReg(R0)  returns 0x08001F6D (0000ms, 0234ms total)
T287C 005:557 JLINK_ReadReg(R1)  returns 0x200008A0 (0000ms, 0234ms total)
T287C 005:557 JLINK_ReadReg(R2)  returns 0x00000000 (0000ms, 0234ms total)
T287C 005:557 JLINK_ReadReg(R3)  returns 0x08001DE1 (0000ms, 0234ms total)
T287C 005:557 JLINK_ReadReg(R4)  returns 0x08002B60 (0000ms, 0234ms total)
T287C 005:557 JLINK_ReadReg(R5)  returns 0x08002B60 (0000ms, 0234ms total)
T287C 005:557 JLINK_ReadReg(R6)  returns 0x20000029 (0000ms, 0234ms total)
T287C 005:557 JLINK_ReadReg(R7)  returns 0x00000040 (0000ms, 0234ms total)
T287C 005:557 JLINK_ReadReg(R8)  returns 0x00000000 (0000ms, 0234ms total)
T287C 005:557 JLINK_ReadReg(R9)  returns 0x20000160 (0000ms, 0234ms total)
T287C 005:557 JLINK_ReadReg(R10)  returns 0x00000000 (0000ms, 0234ms total)
T287C 005:557 JLINK_ReadReg(R11)  returns 0x00000000 (0000ms, 0234ms total)
T287C 005:557 JLINK_ReadReg(R12)  returns 0x0000000F (0000ms, 0234ms total)
T287C 005:557 JLINK_ReadReg(R13)  returns 0x200008A0 (0000ms, 0234ms total)
T287C 005:557 JLINK_ReadReg(R14)  returns 0x08000815 (0000ms, 0234ms total)
T287C 005:557 JLINK_ReadReg(R15)  returns 0x08001F6C (0000ms, 0234ms total)
T287C 005:557 JLINK_ReadReg(XPSR)  returns 0x61000000 (0000ms, 0234ms total)
T287C 005:557 JLINK_ReadReg(MSP)  returns 0x200008A0 (0000ms, 0234ms total)
T287C 005:557 JLINK_ReadReg(PSP)  returns 0x20000800 (0000ms, 0234ms total)
T287C 005:557 JLINK_ReadReg(CFBP)  returns 0x00000000 (0000ms, 0234ms total)
T6178 005:572 JLINK_ReadMem (0x20000029, 0x0001 Bytes, ...) -- CPU_ReadMem(64 bytes @ 0x20000000) -- Updating C cache (64 bytes @ 0x20000000) -- Read from C cache (1 bytes @ 0x20000029) -- Data:  00  returns 0x00 (0002ms, 0236ms total)
T6178 005:574 JLINK_ReadMem (0x20000028, 0x0001 Bytes, ...) -- Read from C cache (1 bytes @ 0x20000028) -- Data:  00  returns 0x00 (0000ms, 0236ms total)
T6178 005:574 JLINK_ReadMem (0x20000040, 0x0001 Bytes, ...) -- CPU_ReadMem(64 bytes @ 0x20000040) -- Updating C cache (64 bytes @ 0x20000040) -- Read from C cache (1 bytes @ 0x20000040) -- Data:  00  returns 0x00 (0001ms, 0237ms total)
T6178 005:575 JLINK_ReadMem (0x20000041, 0x0001 Bytes, ...) -- Read from C cache (1 bytes @ 0x20000041) -- Data:  00  returns 0x00 (0000ms, 0237ms total)
T6178 005:576 JLINK_ReadMem (0x2000002D, 0x0001 Bytes, ...) -- Read from C cache (1 bytes @ 0x2000002D) -- Data:  00  returns 0x00 (0000ms, 0237ms total)
T6178 005:576 JLINK_ReadMem (0x2000001C, 0x0004 Bytes, ...) -- Read from C cache (4 bytes @ 0x2000001C) -- Data:  00 00 00 00  returns 0x00 (0000ms, 0237ms total)
T6178 005:578 JLINK_ReadMem (0x08001F6C, 0x003C Bytes, ...) -- CPU_ReadMem(128 bytes @ 0x08001F40) -- Updating C cache (128 bytes @ 0x08001F40) -- Read from C cache (60 bytes @ 0x08001F6C) -- Data:  FE F7 E8 FE 12 4C 40 27 12 A0 27 70 FF F7 A8 FE ...  returns 0x00 (0002ms, 0239ms total)
T287C 010:785 JLINK_Step() -- Read from C cache (2 bytes @ 0x08001F6C) -- Read from C cache (2 bytes @ 0x08001F6E) -- Simulated  returns 0x00 (0001ms, 0240ms total)
T287C 010:786 JLINK_ReadReg(R15)  returns 0x08000D40 (0000ms, 0240ms total)
T287C 010:786 JLINK_ReadReg(XPSR)  returns 0x61000000 (0000ms, 0240ms total)
T287C 010:786 JLINK_ReadReg(R0)  returns 0x08001F6D (0000ms, 0240ms total)
T287C 010:786 JLINK_ReadReg(R1)  returns 0x200008A0 (0000ms, 0240ms total)
T287C 010:786 JLINK_ReadReg(R2)  returns 0x00000000 (0000ms, 0240ms total)
T287C 010:786 JLINK_ReadReg(R3)  returns 0x08001DE1 (0000ms, 0240ms total)
T287C 010:786 JLINK_ReadReg(R4)  returns 0x08002B60 (0000ms, 0240ms total)
T287C 010:786 JLINK_ReadReg(R5)  returns 0x08002B60 (0000ms, 0240ms total)
T287C 010:786 JLINK_ReadReg(R6)  returns 0x20000029 (0000ms, 0240ms total)
T287C 010:786 JLINK_ReadReg(R7)  returns 0x00000040 (0000ms, 0240ms total)
T287C 010:786 JLINK_ReadReg(R8)  returns 0x00000000 (0000ms, 0240ms total)
T287C 010:786 JLINK_ReadReg(R9)  returns 0x20000160 (0000ms, 0240ms total)
T287C 010:786 JLINK_ReadReg(R10)  returns 0x00000000 (0000ms, 0240ms total)
T287C 010:786 JLINK_ReadReg(R11)  returns 0x00000000 (0000ms, 0240ms total)
T287C 010:786 JLINK_ReadReg(R12)  returns 0x0000000F (0000ms, 0240ms total)
T287C 010:786 JLINK_ReadReg(R13)  returns 0x200008A0 (0000ms, 0240ms total)
T287C 010:786 JLINK_ReadReg(R14)  returns 0x08001F71 (0000ms, 0240ms total)
T287C 010:786 JLINK_ReadReg(R15)  returns 0x08000D40 (0000ms, 0240ms total)
T287C 010:786 JLINK_ReadReg(XPSR)  returns 0x61000000 (0000ms, 0240ms total)
T287C 010:786 JLINK_ReadReg(MSP)  returns 0x200008A0 (0000ms, 0240ms total)
T287C 010:786 JLINK_ReadReg(PSP)  returns 0x20000800 (0000ms, 0240ms total)
T287C 010:786 JLINK_ReadReg(CFBP)  returns 0x00000000 (0000ms, 0240ms total)
T6178 010:789 JLINK_ReadMem (0x20000890, 0x0003 Bytes, ...) -- CPU_ReadMem(64 bytes @ 0x20000880) -- Updating C cache (64 bytes @ 0x20000880) -- Read from C cache (3 bytes @ 0x20000890) -- Data:  00 00 00  returns 0x00 (0001ms, 0241ms total)
T6178 010:801 JLINK_ReadMem (0x20000029, 0x0001 Bytes, ...) -- Read from C cache (1 bytes @ 0x20000029) -- Data:  00  returns 0x00 (0000ms, 0241ms total)
T6178 010:801 JLINK_ReadMem (0x20000028, 0x0001 Bytes, ...) -- Read from C cache (1 bytes @ 0x20000028) -- Data:  00  returns 0x00 (0000ms, 0241ms total)
T6178 010:801 JLINK_ReadMem (0x20000040, 0x0001 Bytes, ...) -- Read from C cache (1 bytes @ 0x20000040) -- Data:  00  returns 0x00 (0000ms, 0241ms total)
T6178 010:801 JLINK_ReadMem (0x20000041, 0x0001 Bytes, ...) -- Read from C cache (1 bytes @ 0x20000041) -- Data:  00  returns 0x00 (0000ms, 0241ms total)
T6178 010:801 JLINK_ReadMem (0x2000002D, 0x0001 Bytes, ...) -- Read from C cache (1 bytes @ 0x2000002D) -- Data:  00  returns 0x00 (0000ms, 0241ms total)
T6178 010:801 JLINK_ReadMem (0x2000001C, 0x0004 Bytes, ...) -- Read from C cache (4 bytes @ 0x2000001C) -- Data:  00 00 00 00  returns 0x00 (0000ms, 0241ms total)
T6178 010:804 JLINK_ReadMem (0x08000D40, 0x003C Bytes, ...) -- CPU_ReadMem(64 bytes @ 0x08000D40) -- Updating C cache (64 bytes @ 0x08000D40) -- Read from C cache (60 bytes @ 0x08000D40) -- Data:  38 B5 00 24 00 94 01 F0 01 F9 4F F4 E1 30 01 F0 ...  returns 0x00 (0002ms, 0243ms total)
T287C 012:558 JLINK_Step() -- Read from C cache (2 bytes @ 0x08000D40) -- CPU_WriteMem(16 bytes @ 0x20000890) -- Simulated  returns 0x00 (0002ms, 0245ms total)
T287C 012:560 JLINK_ReadReg(R15)  returns 0x08000D42 (0000ms, 0245ms total)
T287C 012:560 JLINK_ReadReg(XPSR)  returns 0x61000000 (0000ms, 0245ms total)
T287C 012:560 JLINK_ReadReg(R0)  returns 0x08001F6D (0000ms, 0245ms total)
T287C 012:560 JLINK_ReadReg(R1)  returns 0x200008A0 (0000ms, 0245ms total)
T287C 012:560 JLINK_ReadReg(R2)  returns 0x00000000 (0000ms, 0245ms total)
T287C 012:560 JLINK_ReadReg(R3)  returns 0x08001DE1 (0000ms, 0245ms total)
T287C 012:560 JLINK_ReadReg(R4)  returns 0x08002B60 (0000ms, 0245ms total)
T287C 012:560 JLINK_ReadReg(R5)  returns 0x08002B60 (0000ms, 0245ms total)
T287C 012:560 JLINK_ReadReg(R6)  returns 0x20000029 (0000ms, 0245ms total)
T287C 012:560 JLINK_ReadReg(R7)  returns 0x00000040 (0000ms, 0245ms total)
T287C 012:560 JLINK_ReadReg(R8)  returns 0x00000000 (0000ms, 0245ms total)
T287C 012:560 JLINK_ReadReg(R9)  returns 0x20000160 (0000ms, 0245ms total)
T287C 012:560 JLINK_ReadReg(R10)  returns 0x00000000 (0000ms, 0245ms total)
T287C 012:560 JLINK_ReadReg(R11)  returns 0x00000000 (0000ms, 0245ms total)
T287C 012:560 JLINK_ReadReg(R12)  returns 0x0000000F (0000ms, 0245ms total)
T287C 012:560 JLINK_ReadReg(R13)  returns 0x20000890 (0000ms, 0245ms total)
T287C 012:560 JLINK_ReadReg(R14)  returns 0x08001F71 (0000ms, 0245ms total)
T287C 012:560 JLINK_ReadReg(R15)  returns 0x08000D42 (0000ms, 0245ms total)
T287C 012:560 JLINK_ReadReg(XPSR)  returns 0x61000000 (0000ms, 0245ms total)
T287C 012:560 JLINK_ReadReg(MSP)  returns 0x20000890 (0000ms, 0245ms total)
T287C 012:560 JLINK_ReadReg(PSP)  returns 0x20000800 (0000ms, 0245ms total)
T287C 012:560 JLINK_ReadReg(CFBP)  returns 0x00000000 (0000ms, 0245ms total)
T6178 012:563 JLINK_ReadMem (0x2000089C, 0x0004 Bytes, ...) -- CPU_ReadMem(64 bytes @ 0x20000880) -- Updating C cache (64 bytes @ 0x20000880) -- Read from C cache (4 bytes @ 0x2000089C) -- Data:  71 1F 00 08  returns 0x00 (0001ms, 0246ms total)
T6178 012:564 JLINK_ReadMem (0x20000894, 0x0004 Bytes, ...) -- Read from C cache (4 bytes @ 0x20000894) -- Data:  60 2B 00 08  returns 0x00 (0000ms, 0246ms total)
T6178 012:564 JLINK_ReadMem (0x20000898, 0x0004 Bytes, ...) -- Read from C cache (4 bytes @ 0x20000898) -- Data:  60 2B 00 08  returns 0x00 (0000ms, 0246ms total)
T6178 012:564 JLINK_ReadMem (0x20000890, 0x0003 Bytes, ...) -- Read from C cache (3 bytes @ 0x20000890) -- Data:  E1 1D 00  returns 0x00 (0000ms, 0246ms total)
T6178 012:566 JLINK_ReadMem (0x20000029, 0x0001 Bytes, ...) -- Read from C cache (1 bytes @ 0x20000029) -- Data:  00  returns 0x00 (0000ms, 0246ms total)
T6178 012:566 JLINK_ReadMem (0x20000028, 0x0001 Bytes, ...) -- Read from C cache (1 bytes @ 0x20000028) -- Data:  00  returns 0x00 (0000ms, 0246ms total)
T6178 012:566 JLINK_ReadMem (0x20000040, 0x0001 Bytes, ...) -- Read from C cache (1 bytes @ 0x20000040) -- Data:  00  returns 0x00 (0000ms, 0246ms total)
T6178 012:566 JLINK_ReadMem (0x20000041, 0x0001 Bytes, ...) -- Read from C cache (1 bytes @ 0x20000041) -- Data:  00  returns 0x00 (0000ms, 0246ms total)
T6178 012:566 JLINK_ReadMem (0x2000002D, 0x0001 Bytes, ...) -- Read from C cache (1 bytes @ 0x2000002D) -- Data:  00  returns 0x00 (0000ms, 0246ms total)
T6178 012:566 JLINK_ReadMem (0x2000001C, 0x0004 Bytes, ...) -- Read from C cache (4 bytes @ 0x2000001C) -- Data:  00 00 00 00  returns 0x00 (0000ms, 0246ms total)
T287C 013:049 JLINK_ReadMem (0x08000D42, 0x0002 Bytes, ...) -- Read from C cache (2 bytes @ 0x08000D42) -- Data:  00 24  returns 0x00 (0000ms, 0246ms total)
T287C 013:049 JLINK_ReadMem (0x08000D44, 0x003C Bytes, ...) -- Read from C cache (60 bytes @ 0x08000D44) -- Data:  00 94 01 F0 01 F9 4F F4 E1 30 01 F0 5D FE 00 F0 ...  returns 0x00 (0000ms, 0246ms total)
T287C 013:049 JLINK_Step() -- Read from C cache (2 bytes @ 0x08000D42) -- Simulated  returns 0x00 (0000ms, 0246ms total)
T287C 013:049 JLINK_ReadReg(R15)  returns 0x08000D44 (0000ms, 0246ms total)
T287C 013:049 JLINK_ReadReg(XPSR)  returns 0x61000000 (0000ms, 0246ms total)
T287C 013:049 JLINK_ReadReg(R0)  returns 0x08001F6D (0000ms, 0246ms total)
T287C 013:049 JLINK_ReadReg(R1)  returns 0x200008A0 (0000ms, 0246ms total)
T287C 013:049 JLINK_ReadReg(R2)  returns 0x00000000 (0000ms, 0246ms total)
T287C 013:049 JLINK_ReadReg(R3)  returns 0x08001DE1 (0000ms, 0246ms total)
T287C 013:049 JLINK_ReadReg(R4)  returns 0x00000000 (0000ms, 0246ms total)
T287C 013:049 JLINK_ReadReg(R5)  returns 0x08002B60 (0000ms, 0246ms total)
T287C 013:049 JLINK_ReadReg(R6)  returns 0x20000029 (0000ms, 0246ms total)
T287C 013:049 JLINK_ReadReg(R7)  returns 0x00000040 (0000ms, 0246ms total)
T287C 013:049 JLINK_ReadReg(R8)  returns 0x00000000 (0000ms, 0246ms total)
T287C 013:049 JLINK_ReadReg(R9)  returns 0x20000160 (0000ms, 0246ms total)
T287C 013:049 JLINK_ReadReg(R10)  returns 0x00000000 (0000ms, 0246ms total)
T287C 013:049 JLINK_ReadReg(R11)  returns 0x00000000 (0000ms, 0246ms total)
T287C 013:049 JLINK_ReadReg(R12)  returns 0x0000000F (0000ms, 0246ms total)
T287C 013:049 JLINK_ReadReg(R13)  returns 0x20000890 (0000ms, 0246ms total)
T287C 013:049 JLINK_ReadReg(R14)  returns 0x08001F71 (0000ms, 0246ms total)
T287C 013:049 JLINK_ReadReg(R15)  returns 0x08000D44 (0000ms, 0246ms total)
T287C 013:049 JLINK_ReadReg(XPSR)  returns 0x61000000 (0000ms, 0246ms total)
T287C 013:049 JLINK_ReadReg(MSP)  returns 0x20000890 (0000ms, 0246ms total)
T287C 013:049 JLINK_ReadReg(PSP)  returns 0x20000800 (0000ms, 0246ms total)
T287C 013:049 JLINK_ReadReg(CFBP)  returns 0x00000000 (0000ms, 0246ms total)
T6178 013:050 JLINK_ReadMem (0x2000089C, 0x0004 Bytes, ...) -- Read from C cache (4 bytes @ 0x2000089C) -- Data:  71 1F 00 08  returns 0x00 (0000ms, 0246ms total)
T6178 013:050 JLINK_ReadMem (0x20000894, 0x0004 Bytes, ...) -- Read from C cache (4 bytes @ 0x20000894) -- Data:  60 2B 00 08  returns 0x00 (0000ms, 0246ms total)
T6178 013:050 JLINK_ReadMem (0x20000898, 0x0004 Bytes, ...) -- Read from C cache (4 bytes @ 0x20000898) -- Data:  60 2B 00 08  returns 0x00 (0000ms, 0246ms total)
T6178 013:050 JLINK_ReadMem (0x20000890, 0x0003 Bytes, ...) -- Read from C cache (3 bytes @ 0x20000890) -- Data:  E1 1D 00  returns 0x00 (0000ms, 0246ms total)
T6178 013:051 JLINK_ReadMem (0x20000029, 0x0001 Bytes, ...) -- Read from C cache (1 bytes @ 0x20000029) -- Data:  00  returns 0x00 (0000ms, 0246ms total)
T6178 013:051 JLINK_ReadMem (0x20000028, 0x0001 Bytes, ...) -- Read from C cache (1 bytes @ 0x20000028) -- Data:  00  returns 0x00 (0000ms, 0246ms total)
T6178 013:051 JLINK_ReadMem (0x20000040, 0x0001 Bytes, ...) -- Read from C cache (1 bytes @ 0x20000040) -- Data:  00  returns 0x00 (0000ms, 0246ms total)
T6178 013:051 JLINK_ReadMem (0x20000041, 0x0001 Bytes, ...) -- Read from C cache (1 bytes @ 0x20000041) -- Data:  00  returns 0x00 (0000ms, 0246ms total)
T6178 013:051 JLINK_ReadMem (0x2000002D, 0x0001 Bytes, ...) -- Read from C cache (1 bytes @ 0x2000002D) -- Data:  00  returns 0x00 (0000ms, 0246ms total)
T6178 013:051 JLINK_ReadMem (0x2000001C, 0x0004 Bytes, ...) -- Read from C cache (4 bytes @ 0x2000001C) -- Data:  00 00 00 00  returns 0x00 (0000ms, 0246ms total)
T6178 013:053 JLINK_ReadMem (0x08000D44, 0x003C Bytes, ...) -- Read from C cache (60 bytes @ 0x08000D44) -- Data:  00 94 01 F0 01 F9 4F F4 E1 30 01 F0 5D FE 00 F0 ...  returns 0x00 (0000ms, 0246ms total)
T287C 013:468 JLINK_Step() -- Read from C cache (2 bytes @ 0x08000D44) -- CPU_WriteMem(4 bytes @ 0x20000890) -- Simulated  returns 0x00 (0002ms, 0248ms total)
T287C 013:470 JLINK_ReadReg(R15)  returns 0x08000D46 (0000ms, 0248ms total)
T287C 013:470 JLINK_ReadReg(XPSR)  returns 0x61000000 (0000ms, 0248ms total)
T287C 013:470 JLINK_SetBPEx(Addr = 0x08000D4A, Type = 0xFFFFFFF2)  returns 0x00000002 (0000ms, 0248ms total)
T287C 013:470 JLINK_Go() -- CPU_WriteMem(4 bytes @ 0xE0002008) -- CPU_WriteMem(4 bytes @ 0xE000200C) -- CPU_WriteMem(4 bytes @ 0xE0002010) -- CPU_WriteMem(4 bytes @ 0xE0002014) -- CPU_WriteMem(4 bytes @ 0xE0002018) -- CPU_WriteMem(4 bytes @ 0xE000201C) (0005ms, 0253ms total)
T287C 013:576 JLINK_IsHalted()  returns TRUE (0004ms, 0257ms total)
T287C 013:580 JLINK_Halt()  returns 0x00 (0000ms, 0253ms total)
T287C 013:580 JLINK_IsHalted()  returns TRUE (0000ms, 0253ms total)
T287C 013:580 JLINK_IsHalted()  returns TRUE (0000ms, 0253ms total)
T287C 013:580 JLINK_IsHalted()  returns TRUE (0000ms, 0253ms total)
T287C 013:580 JLINK_ReadReg(R15)  returns 0x08000D4A (0000ms, 0253ms total)
T287C 013:580 JLINK_ReadReg(XPSR)  returns 0xA1000000 (0000ms, 0253ms total)
T287C 013:580 JLINK_ClrBPEx(BPHandle = 0x00000002)  returns 0x00 (0000ms, 0253ms total)
T287C 013:580 JLINK_ReadMemU32(0xE000ED30, 0x0001 Items, ...) -- CPU_ReadMem(4 bytes @ 0xE000ED30) -- Data:  03 00 00 00  returns 0x01 (0000ms, 0253ms total)
T287C 013:580 JLINK_ReadMemU32(0xE0001028, 0x0001 Items, ...) -- CPU_ReadMem(4 bytes @ 0xE0001028) -- Data:  00 00 00 00  returns 0x01 (0001ms, 0254ms total)
T287C 013:581 JLINK_ReadMemU32(0xE0001038, 0x0001 Items, ...) -- CPU_ReadMem(4 bytes @ 0xE0001038) -- Data:  00 02 00 00  returns 0x01 (0001ms, 0255ms total)
T287C 013:582 JLINK_ReadMemU32(0xE0001048, 0x0001 Items, ...) -- CPU_ReadMem(4 bytes @ 0xE0001048) -- Data:  00 00 00 00  returns 0x01 (0001ms, 0256ms total)
T287C 013:583 JLINK_ReadMemU32(0xE0001058, 0x0001 Items, ...) -- CPU_ReadMem(4 bytes @ 0xE0001058) -- Data:  00 00 00 00  returns 0x01 (0000ms, 0256ms total)
T287C 013:583 JLINK_ReadReg(R0)  returns 0x00000000 (0000ms, 0256ms total)
T287C 013:583 JLINK_ReadReg(R1)  returns 0xE000E000 (0000ms, 0256ms total)
T287C 013:583 JLINK_ReadReg(R2)  returns 0x00000000 (0000ms, 0256ms total)
T287C 013:583 JLINK_ReadReg(R3)  returns 0x08001DE1 (0000ms, 0256ms total)
T287C 013:583 JLINK_ReadReg(R4)  returns 0x00000000 (0000ms, 0256ms total)
T287C 013:583 JLINK_ReadReg(R5)  returns 0x08002B60 (0000ms, 0256ms total)
T287C 013:583 JLINK_ReadReg(R6)  returns 0x20000029 (0000ms, 0256ms total)
T287C 013:583 JLINK_ReadReg(R7)  returns 0x00000040 (0000ms, 0256ms total)
T287C 013:583 JLINK_ReadReg(R8)  returns 0x00000000 (0000ms, 0256ms total)
T287C 013:583 JLINK_ReadReg(R9)  returns 0x20000160 (0000ms, 0256ms total)
T287C 013:583 JLINK_ReadReg(R10)  returns 0x00000000 (0000ms, 0256ms total)
T287C 013:583 JLINK_ReadReg(R11)  returns 0x00000000 (0000ms, 0256ms total)
T287C 013:583 JLINK_ReadReg(R12)  returns 0x0000000F (0000ms, 0256ms total)
T287C 013:583 JLINK_ReadReg(R13)  returns 0x20000890 (0000ms, 0256ms total)
T287C 013:583 JLINK_ReadReg(R14)  returns 0x08000D4B (0000ms, 0256ms total)
T287C 013:583 JLINK_ReadReg(R15)  returns 0x08000D4A (0000ms, 0256ms total)
T287C 013:583 JLINK_ReadReg(XPSR)  returns 0xA1000000 (0000ms, 0256ms total)
T287C 013:583 JLINK_ReadReg(MSP)  returns 0x20000890 (0000ms, 0256ms total)
T287C 013:583 JLINK_ReadReg(PSP)  returns 0x20000800 (0000ms, 0256ms total)
T287C 013:583 JLINK_ReadReg(CFBP)  returns 0x00000000 (0000ms, 0256ms total)
T6178 013:584 JLINK_ReadMem (0x2000089C, 0x0004 Bytes, ...) -- CPU_ReadMem(64 bytes @ 0x20000880) -- Updating C cache (64 bytes @ 0x20000880) -- Read from C cache (4 bytes @ 0x2000089C) -- Data:  71 1F 00 08  returns 0x00 (0001ms, 0257ms total)
T6178 013:585 JLINK_ReadMem (0x20000894, 0x0004 Bytes, ...) -- Read from C cache (4 bytes @ 0x20000894) -- Data:  60 2B 00 08  returns 0x00 (0000ms, 0257ms total)
T6178 013:585 JLINK_ReadMem (0x20000898, 0x0004 Bytes, ...) -- Read from C cache (4 bytes @ 0x20000898) -- Data:  60 2B 00 08  returns 0x00 (0000ms, 0257ms total)
T6178 013:585 JLINK_ReadMem (0x20000890, 0x0003 Bytes, ...) -- Read from C cache (3 bytes @ 0x20000890) -- Data:  00 00 00  returns 0x00 (0000ms, 0257ms total)
T6178 013:588 JLINK_ReadMem (0x20000029, 0x0001 Bytes, ...) -- CPU_ReadMem(64 bytes @ 0x20000000) -- Updating C cache (64 bytes @ 0x20000000) -- Read from C cache (1 bytes @ 0x20000029) -- Data:  00  returns 0x00 (0001ms, 0258ms total)
T6178 013:589 JLINK_ReadMem (0x20000028, 0x0001 Bytes, ...) -- Read from C cache (1 bytes @ 0x20000028) -- Data:  00  returns 0x00 (0000ms, 0258ms total)
T6178 013:589 JLINK_ReadMem (0x20000040, 0x0001 Bytes, ...) -- CPU_ReadMem(64 bytes @ 0x20000040) -- Updating C cache (64 bytes @ 0x20000040) -- Read from C cache (1 bytes @ 0x20000040) -- Data:  00  returns 0x00 (0002ms, 0260ms total)
T6178 013:591 JLINK_ReadMem (0x20000041, 0x0001 Bytes, ...) -- Read from C cache (1 bytes @ 0x20000041) -- Data:  00  returns 0x00 (0000ms, 0260ms total)
T6178 013:591 JLINK_ReadMem (0x2000002D, 0x0001 Bytes, ...) -- Read from C cache (1 bytes @ 0x2000002D) -- Data:  00  returns 0x00 (0000ms, 0260ms total)
T6178 013:591 JLINK_ReadMem (0x2000001C, 0x0004 Bytes, ...) -- Read from C cache (4 bytes @ 0x2000001C) -- Data:  00 00 00 00  returns 0x00 (0000ms, 0260ms total)
T6178 013:595 JLINK_ReadMem (0x08000D4A, 0x0002 Bytes, ...) -- CPU_ReadMem(64 bytes @ 0x08000D40) -- Updating C cache (64 bytes @ 0x08000D40) -- Read from C cache (2 bytes @ 0x08000D4A) -- Data:  4F F4  returns 0x00 (0002ms, 0262ms total)
T6178 013:597 JLINK_ReadMem (0x08000D4C, 0x003C Bytes, ...) -- CPU_ReadMem(64 bytes @ 0x08000D80) -- Updating C cache (64 bytes @ 0x08000D80) -- Read from C cache (60 bytes @ 0x08000D4C) -- Data:  E1 30 01 F0 5D FE 00 F0 D9 F8 00 F0 A7 FC 00 F0 ...  returns 0x00 (0001ms, 0263ms total)
T287C 013:968 JLINK_Step() -- Read from C cache (2 bytes @ 0x08000D4A) -- Read from C cache (2 bytes @ 0x08000D4C) -- Simulated  returns 0x00 (0000ms, 0263ms total)
T287C 013:968 JLINK_ReadReg(R15)  returns 0x08000D4E (0000ms, 0263ms total)
T287C 013:968 JLINK_ReadReg(XPSR)  returns 0xA1000000 (0000ms, 0263ms total)
T287C 013:968 JLINK_SetBPEx(Addr = 0x08000D52, Type = 0xFFFFFFF2)  returns 0x00000003 (0000ms, 0263ms total)
T287C 013:968 JLINK_Go() -- CPU_WriteMem(4 bytes @ 0xE0002008) -- CPU_WriteMem(4 bytes @ 0xE000200C) -- CPU_WriteMem(4 bytes @ 0xE0002010) -- CPU_WriteMem(4 bytes @ 0xE0002014) -- CPU_WriteMem(4 bytes @ 0xE0002018) -- CPU_WriteMem(4 bytes @ 0xE000201C) (0005ms, 0268ms total)
T287C 014:074 JLINK_IsHalted()  returns TRUE (0004ms, 0272ms total)
T287C 014:078 JLINK_Halt()  returns 0x00 (0000ms, 0268ms total)
T287C 014:078 JLINK_IsHalted()  returns TRUE (0000ms, 0268ms total)
T287C 014:078 JLINK_IsHalted()  returns TRUE (0000ms, 0268ms total)
T287C 014:078 JLINK_IsHalted()  returns TRUE (0000ms, 0268ms total)
T287C 014:078 JLINK_ReadReg(R15)  returns 0x08000D52 (0000ms, 0268ms total)
T287C 014:078 JLINK_ReadReg(XPSR)  returns 0x21000000 (0000ms, 0268ms total)
T287C 014:078 JLINK_ClrBPEx(BPHandle = 0x00000003)  returns 0x00 (0000ms, 0268ms total)
T287C 014:078 JLINK_ReadMemU32(0xE000ED30, 0x0001 Items, ...) -- CPU_ReadMem(4 bytes @ 0xE000ED30) -- Data:  03 00 00 00  returns 0x01 (0001ms, 0269ms total)
T287C 014:079 JLINK_ReadMemU32(0xE0001028, 0x0001 Items, ...) -- CPU_ReadMem(4 bytes @ 0xE0001028) -- Data:  00 00 00 00  returns 0x01 (0001ms, 0270ms total)
T287C 014:080 JLINK_ReadMemU32(0xE0001038, 0x0001 Items, ...) -- CPU_ReadMem(4 bytes @ 0xE0001038) -- Data:  00 02 00 00  returns 0x01 (0000ms, 0270ms total)
T287C 014:080 JLINK_ReadMemU32(0xE0001048, 0x0001 Items, ...) -- CPU_ReadMem(4 bytes @ 0xE0001048) -- Data:  00 00 00 00  returns 0x01 (0001ms, 0271ms total)
T287C 014:081 JLINK_ReadMemU32(0xE0001058, 0x0001 Items, ...) -- CPU_ReadMem(4 bytes @ 0xE0001058) -- Data:  00 00 00 00  returns 0x01 (0001ms, 0272ms total)
T287C 014:082 JLINK_ReadReg(R0)  returns 0x40013800 (0000ms, 0272ms total)
T287C 014:082 JLINK_ReadReg(R1)  returns 0x0000202C (0000ms, 0272ms total)
T287C 014:082 JLINK_ReadReg(R2)  returns 0x0000002C (0000ms, 0272ms total)
T287C 014:082 JLINK_ReadReg(R3)  returns 0x00000001 (0000ms, 0272ms total)
T287C 014:082 JLINK_ReadReg(R4)  returns 0x00000000 (0000ms, 0272ms total)
T287C 014:082 JLINK_ReadReg(R5)  returns 0x08002B60 (0000ms, 0272ms total)
T287C 014:082 JLINK_ReadReg(R6)  returns 0x20000029 (0000ms, 0272ms total)
T287C 014:082 JLINK_ReadReg(R7)  returns 0x00000040 (0000ms, 0272ms total)
T287C 014:082 JLINK_ReadReg(R8)  returns 0x00000000 (0000ms, 0272ms total)
T287C 014:082 JLINK_ReadReg(R9)  returns 0x20000160 (0000ms, 0272ms total)
T287C 014:082 JLINK_ReadReg(R10)  returns 0x00000000 (0000ms, 0272ms total)
T287C 014:082 JLINK_ReadReg(R11)  returns 0x00000000 (0000ms, 0272ms total)
T287C 014:082 JLINK_ReadReg(R12)  returns 0x0000000F (0000ms, 0272ms total)
T287C 014:082 JLINK_ReadReg(R13)  returns 0x20000890 (0000ms, 0272ms total)
T287C 014:082 JLINK_ReadReg(R14)  returns 0x08002AA1 (0000ms, 0272ms total)
T287C 014:082 JLINK_ReadReg(R15)  returns 0x08000D52 (0000ms, 0272ms total)
T287C 014:082 JLINK_ReadReg(XPSR)  returns 0x21000000 (0000ms, 0272ms total)
T287C 014:082 JLINK_ReadReg(MSP)  returns 0x20000890 (0000ms, 0272ms total)
T287C 014:082 JLINK_ReadReg(PSP)  returns 0x20000800 (0000ms, 0272ms total)
T287C 014:082 JLINK_ReadReg(CFBP)  returns 0x00000000 (0000ms, 0272ms total)
T6178 014:082 JLINK_ReadMem (0x2000089C, 0x0004 Bytes, ...) -- CPU_ReadMem(64 bytes @ 0x20000880) -- Updating C cache (64 bytes @ 0x20000880) -- Read from C cache (4 bytes @ 0x2000089C) -- Data:  71 1F 00 08  returns 0x00 (0002ms, 0274ms total)
T6178 014:084 JLINK_ReadMem (0x20000894, 0x0004 Bytes, ...) -- Read from C cache (4 bytes @ 0x20000894) -- Data:  60 2B 00 08  returns 0x00 (0000ms, 0274ms total)
T6178 014:084 JLINK_ReadMem (0x20000898, 0x0004 Bytes, ...) -- Read from C cache (4 bytes @ 0x20000898) -- Data:  60 2B 00 08  returns 0x00 (0000ms, 0274ms total)
T6178 014:084 JLINK_ReadMem (0x20000890, 0x0003 Bytes, ...) -- Read from C cache (3 bytes @ 0x20000890) -- Data:  00 00 00  returns 0x00 (0000ms, 0274ms total)
T6178 014:086 JLINK_ReadMem (0x20000029, 0x0001 Bytes, ...) -- CPU_ReadMem(64 bytes @ 0x20000000) -- Updating C cache (64 bytes @ 0x20000000) -- Read from C cache (1 bytes @ 0x20000029) -- Data:  00  returns 0x00 (0001ms, 0275ms total)
T6178 014:087 JLINK_ReadMem (0x20000028, 0x0001 Bytes, ...) -- Read from C cache (1 bytes @ 0x20000028) -- Data:  00  returns 0x00 (0000ms, 0275ms total)
T6178 014:087 JLINK_ReadMem (0x20000040, 0x0001 Bytes, ...) -- CPU_ReadMem(64 bytes @ 0x20000040) -- Updating C cache (64 bytes @ 0x20000040) -- Read from C cache (1 bytes @ 0x20000040) -- Data:  00  returns 0x00 (0001ms, 0276ms total)
T6178 014:088 JLINK_ReadMem (0x20000041, 0x0001 Bytes, ...) -- Read from C cache (1 bytes @ 0x20000041) -- Data:  00  returns 0x00 (0000ms, 0276ms total)
T6178 014:088 JLINK_ReadMem (0x2000002D, 0x0001 Bytes, ...) -- Read from C cache (1 bytes @ 0x2000002D) -- Data:  00  returns 0x00 (0000ms, 0276ms total)
T6178 014:088 JLINK_ReadMem (0x2000001C, 0x0004 Bytes, ...) -- Read from C cache (4 bytes @ 0x2000001C) -- Data:  00 00 00 00  returns 0x00 (0000ms, 0276ms total)
T6178 014:091 JLINK_ReadMem (0x08000D52, 0x0002 Bytes, ...) -- CPU_ReadMem(64 bytes @ 0x08000D40) -- Updating C cache (64 bytes @ 0x08000D40) -- Read from C cache (2 bytes @ 0x08000D52) -- Data:  00 F0  returns 0x00 (0002ms, 0278ms total)
T6178 014:093 JLINK_ReadMem (0x08000D54, 0x003C Bytes, ...) -- CPU_ReadMem(64 bytes @ 0x08000D80) -- Updating C cache (64 bytes @ 0x08000D80) -- Read from C cache (60 bytes @ 0x08000D54) -- Data:  D9 F8 00 F0 A7 FC 00 F0 57 FA 03 22 69 46 0A 48 ...  returns 0x00 (0001ms, 0279ms total)
T287C 014:754 JLINK_SetBPEx(Addr = 0x08000D56, Type = 0xFFFFFFF2)  returns 0x00000004 (0000ms, 0279ms total)
T287C 014:754 JLINK_Go() -- CPU_WriteMem(4 bytes @ 0xE0002008) -- CPU_WriteMem(4 bytes @ 0xE000200C) -- CPU_WriteMem(4 bytes @ 0xE0002010) -- CPU_WriteMem(4 bytes @ 0xE0002014) -- CPU_WriteMem(4 bytes @ 0xE0002018) -- CPU_WriteMem(4 bytes @ 0xE000201C) (0005ms, 0284ms total)
T287C 014:859 JLINK_IsHalted()  returns TRUE (0004ms, 0288ms total)
T287C 014:863 JLINK_Halt()  returns 0x00 (0000ms, 0284ms total)
T287C 014:863 JLINK_IsHalted()  returns TRUE (0000ms, 0284ms total)
T287C 014:863 JLINK_IsHalted()  returns TRUE (0000ms, 0284ms total)
T287C 014:863 JLINK_IsHalted()  returns TRUE (0000ms, 0284ms total)
T287C 014:863 JLINK_ReadReg(R15)  returns 0x08000D56 (0000ms, 0284ms total)
T287C 014:863 JLINK_ReadReg(XPSR)  returns 0x41000000 (0000ms, 0284ms total)
T287C 014:863 JLINK_ClrBPEx(BPHandle = 0x00000004)  returns 0x00 (0000ms, 0284ms total)
T287C 014:863 JLINK_ReadMemU32(0xE000ED30, 0x0001 Items, ...) -- CPU_ReadMem(4 bytes @ 0xE000ED30) -- Data:  03 00 00 00  returns 0x01 (0000ms, 0284ms total)
T287C 014:863 JLINK_ReadMemU32(0xE0001028, 0x0001 Items, ...) -- CPU_ReadMem(4 bytes @ 0xE0001028) -- Data:  00 00 00 00  returns 0x01 (0001ms, 0285ms total)
T287C 014:864 JLINK_ReadMemU32(0xE0001038, 0x0001 Items, ...) -- CPU_ReadMem(4 bytes @ 0xE0001038) -- Data:  00 02 00 00  returns 0x01 (0000ms, 0285ms total)
T287C 014:864 JLINK_ReadMemU32(0xE0001048, 0x0001 Items, ...) -- CPU_ReadMem(4 bytes @ 0xE0001048) -- Data:  00 00 00 00  returns 0x01 (0001ms, 0286ms total)
T287C 014:865 JLINK_ReadMemU32(0xE0001058, 0x0001 Items, ...) -- CPU_ReadMem(4 bytes @ 0xE0001058) -- Data:  00 00 00 00  returns 0x01 (0001ms, 0287ms total)
T287C 014:866 JLINK_ReadReg(R0)  returns 0xE000E000 (0000ms, 0287ms total)
T287C 014:866 JLINK_ReadReg(R1)  returns 0x00000001 (0000ms, 0287ms total)
T287C 014:866 JLINK_ReadReg(R2)  returns 0x00010800 (0000ms, 0287ms total)
T287C 014:866 JLINK_ReadReg(R3)  returns 0x01010006 (0000ms, 0287ms total)
T287C 014:866 JLINK_ReadReg(R4)  returns 0x00000000 (0000ms, 0287ms total)
T287C 014:866 JLINK_ReadReg(R5)  returns 0x08002B60 (0000ms, 0287ms total)
T287C 014:866 JLINK_ReadReg(R6)  returns 0x20000029 (0000ms, 0287ms total)
T287C 014:866 JLINK_ReadReg(R7)  returns 0x00000040 (0000ms, 0287ms total)
T287C 014:866 JLINK_ReadReg(R8)  returns 0x00000000 (0000ms, 0287ms total)
T287C 014:866 JLINK_ReadReg(R9)  returns 0x20000160 (0000ms, 0287ms total)
T287C 014:866 JLINK_ReadReg(R10)  returns 0x00000000 (0000ms, 0287ms total)
T287C 014:866 JLINK_ReadReg(R11)  returns 0x00000000 (0000ms, 0287ms total)
T287C 014:866 JLINK_ReadReg(R12)  returns 0x0000000F (0000ms, 0287ms total)
T287C 014:866 JLINK_ReadReg(R13)  returns 0x20000890 (0000ms, 0287ms total)
T287C 014:866 JLINK_ReadReg(R14)  returns 0x08000B7D (0000ms, 0287ms total)
T287C 014:866 JLINK_ReadReg(R15)  returns 0x08000D56 (0000ms, 0287ms total)
T287C 014:866 JLINK_ReadReg(XPSR)  returns 0x41000000 (0000ms, 0287ms total)
T287C 014:866 JLINK_ReadReg(MSP)  returns 0x20000890 (0000ms, 0287ms total)
T287C 014:866 JLINK_ReadReg(PSP)  returns 0x20000800 (0000ms, 0287ms total)
T287C 014:866 JLINK_ReadReg(CFBP)  returns 0x00000000 (0000ms, 0287ms total)
T6178 014:866 JLINK_ReadMem (0x2000089C, 0x0004 Bytes, ...) -- CPU_ReadMem(64 bytes @ 0x20000880) -- Updating C cache (64 bytes @ 0x20000880) -- Read from C cache (4 bytes @ 0x2000089C) -- Data:  71 1F 00 08  returns 0x00 (0001ms, 0288ms total)
T6178 014:867 JLINK_ReadMem (0x20000894, 0x0004 Bytes, ...) -- Read from C cache (4 bytes @ 0x20000894) -- Data:  60 2B 00 08  returns 0x00 (0000ms, 0288ms total)
T6178 014:867 JLINK_ReadMem (0x20000898, 0x0004 Bytes, ...) -- Read from C cache (4 bytes @ 0x20000898) -- Data:  60 2B 00 08  returns 0x00 (0000ms, 0288ms total)
T6178 014:867 JLINK_ReadMem (0x20000890, 0x0003 Bytes, ...) -- Read from C cache (3 bytes @ 0x20000890) -- Data:  00 00 00  returns 0x00 (0000ms, 0288ms total)
T6178 014:869 JLINK_ReadMem (0x20000029, 0x0001 Bytes, ...) -- CPU_ReadMem(64 bytes @ 0x20000000) -- Updating C cache (64 bytes @ 0x20000000) -- Read from C cache (1 bytes @ 0x20000029) -- Data:  00  returns 0x00 (0001ms, 0289ms total)
T6178 014:870 JLINK_ReadMem (0x20000028, 0x0001 Bytes, ...) -- Read from C cache (1 bytes @ 0x20000028) -- Data:  00  returns 0x00 (0000ms, 0289ms total)
T6178 014:870 JLINK_ReadMem (0x20000040, 0x0001 Bytes, ...) -- CPU_ReadMem(64 bytes @ 0x20000040) -- Updating C cache (64 bytes @ 0x20000040) -- Read from C cache (1 bytes @ 0x20000040) -- Data:  00  returns 0x00 (0001ms, 0290ms total)
T6178 014:871 JLINK_ReadMem (0x20000041, 0x0001 Bytes, ...) -- Read from C cache (1 bytes @ 0x20000041) -- Data:  00  returns 0x00 (0000ms, 0290ms total)
T6178 014:871 JLINK_ReadMem (0x2000002D, 0x0001 Bytes, ...) -- Read from C cache (1 bytes @ 0x2000002D) -- Data:  00  returns 0x00 (0000ms, 0290ms total)
T6178 014:871 JLINK_ReadMem (0x2000001C, 0x0004 Bytes, ...) -- Read from C cache (4 bytes @ 0x2000001C) -- Data:  00 00 00 00  returns 0x00 (0000ms, 0290ms total)
T6178 014:874 JLINK_ReadMem (0x08000D56, 0x0002 Bytes, ...) -- CPU_ReadMem(64 bytes @ 0x08000D40) -- Updating C cache (64 bytes @ 0x08000D40) -- Read from C cache (2 bytes @ 0x08000D56) -- Data:  00 F0  returns 0x00 (0001ms, 0291ms total)
T6178 014:875 JLINK_ReadMem (0x08000D58, 0x003C Bytes, ...) -- CPU_ReadMem(64 bytes @ 0x08000D80) -- Updating C cache (64 bytes @ 0x08000D80) -- Read from C cache (60 bytes @ 0x08000D58) -- Data:  A7 FC 00 F0 57 FA 03 22 69 46 0A 48 00 F0 15 FB ...  returns 0x00 (0001ms, 0292ms total)
T287C 015:907 JLINK_Step() -- Read from C cache (2 bytes @ 0x08000D56) -- Read from C cache (2 bytes @ 0x08000D58) -- Simulated  returns 0x00 (0001ms, 0293ms total)
T287C 015:908 JLINK_ReadReg(R15)  returns 0x080016A8 (0000ms, 0293ms total)
T287C 015:908 JLINK_ReadReg(XPSR)  returns 0x41000000 (0000ms, 0293ms total)
T287C 015:908 JLINK_ReadReg(R0)  returns 0xE000E000 (0000ms, 0293ms total)
T287C 015:908 JLINK_ReadReg(R1)  returns 0x00000001 (0000ms, 0293ms total)
T287C 015:908 JLINK_ReadReg(R2)  returns 0x00010800 (0000ms, 0293ms total)
T287C 015:908 JLINK_ReadReg(R3)  returns 0x01010006 (0000ms, 0293ms total)
T287C 015:908 JLINK_ReadReg(R4)  returns 0x00000000 (0000ms, 0293ms total)
T287C 015:908 JLINK_ReadReg(R5)  returns 0x08002B60 (0000ms, 0293ms total)
T287C 015:908 JLINK_ReadReg(R6)  returns 0x20000029 (0000ms, 0293ms total)
T287C 015:908 JLINK_ReadReg(R7)  returns 0x00000040 (0000ms, 0293ms total)
T287C 015:908 JLINK_ReadReg(R8)  returns 0x00000000 (0000ms, 0293ms total)
T287C 015:908 JLINK_ReadReg(R9)  returns 0x20000160 (0000ms, 0293ms total)
T287C 015:908 JLINK_ReadReg(R10)  returns 0x00000000 (0000ms, 0293ms total)
T287C 015:908 JLINK_ReadReg(R11)  returns 0x00000000 (0000ms, 0293ms total)
T287C 015:908 JLINK_ReadReg(R12)  returns 0x0000000F (0000ms, 0293ms total)
T287C 015:908 JLINK_ReadReg(R13)  returns 0x20000890 (0000ms, 0293ms total)
T287C 015:908 JLINK_ReadReg(R14)  returns 0x08000D5B (0000ms, 0293ms total)
T287C 015:908 JLINK_ReadReg(R15)  returns 0x080016A8 (0000ms, 0293ms total)
T287C 015:908 JLINK_ReadReg(XPSR)  returns 0x41000000 (0000ms, 0293ms total)
T287C 015:908 JLINK_ReadReg(MSP)  returns 0x20000890 (0000ms, 0293ms total)
T287C 015:908 JLINK_ReadReg(PSP)  returns 0x20000800 (0000ms, 0293ms total)
T287C 015:908 JLINK_ReadReg(CFBP)  returns 0x00000000 (0000ms, 0293ms total)
T6178 015:911 JLINK_ReadMem (0x2000089C, 0x0004 Bytes, ...) -- Read from C cache (4 bytes @ 0x2000089C) -- Data:  71 1F 00 08  returns 0x00 (0000ms, 0293ms total)
T6178 015:911 JLINK_ReadMem (0x20000894, 0x0004 Bytes, ...) -- Read from C cache (4 bytes @ 0x20000894) -- Data:  60 2B 00 08  returns 0x00 (0000ms, 0293ms total)
T6178 015:911 JLINK_ReadMem (0x20000898, 0x0004 Bytes, ...) -- Read from C cache (4 bytes @ 0x20000898) -- Data:  60 2B 00 08  returns 0x00 (0000ms, 0293ms total)
T6178 015:911 JLINK_ReadMem (0x00000000, 0x0002 Bytes, ...)
                JLINK_ReadMemHW(0x00000000, 0x0004 Bytes, ...) -- CPU_ReadMem(4 bytes @ 0x00000000) -- Data:  A0 08 00 20  returns 0x00 (0001ms, 0001ms total)
                JLINK_ReadMemHW(0x08000000, 0x0004 Bytes, ...) -- CPU_ReadMem(4 bytes @ 0x08000000) -- Data:  A0 08 00 20  returns 0x00 (0000ms, 0001ms total)
                JLINK_WriteMemHW(0x00000000, 0x0004 Bytes, ...) -- Data:  01 00 01 00 -- CPU_WriteMem(4 bytes @ 0x00000000)  returns 0x04 (0001ms, 0002ms total)
                JLINK_ReadMemHW(0x00000000, 0x0004 Bytes, ...) -- CPU_ReadMem(4 bytes @ 0x00000000) -- Data:  A0 08 00 20  returns 0x00 (0001ms, 0003ms total)
               -- MA0 is in flash -- Unmirror addr 0x00000000 -- CPU_ReadMem(64 bytes @ 0x08000000) -- Updating C cache (64 bytes @ 0x08000000) -- Read from C cache (2 bytes @ 0x08000000) -- Data:  A0 08  returns 0x00 (0004ms, 0297ms total)
T6178 015:915 JLINK_ReadMem (0x00000000, 0x0008 Bytes, ...) -- Unmirror addr 0x00000000 -- Read from C cache (8 bytes @ 0x08000000) -- Data:  A0 08 00 20 45 01 00 08  returns 0x00 (0000ms, 0297ms total)
T6178 015:924 JLINK_ReadMem (0x20000890, 0x0003 Bytes, ...) -- Read from C cache (3 bytes @ 0x20000890) -- Data:  00 00 00  returns 0x00 (0000ms, 0297ms total)
T6178 015:925 JLINK_ReadMem (0x20000029, 0x0001 Bytes, ...) -- Read from C cache (1 bytes @ 0x20000029) -- Data:  00  returns 0x00 (0000ms, 0297ms total)
T6178 015:925 JLINK_ReadMem (0x20000028, 0x0001 Bytes, ...) -- Read from C cache (1 bytes @ 0x20000028) -- Data:  00  returns 0x00 (0000ms, 0297ms total)
T6178 015:925 JLINK_ReadMem (0x20000040, 0x0001 Bytes, ...) -- Read from C cache (1 bytes @ 0x20000040) -- Data:  00  returns 0x00 (0000ms, 0297ms total)
T6178 015:925 JLINK_ReadMem (0x20000041, 0x0001 Bytes, ...) -- Read from C cache (1 bytes @ 0x20000041) -- Data:  00  returns 0x00 (0000ms, 0297ms total)
T6178 015:925 JLINK_ReadMem (0x2000002D, 0x0001 Bytes, ...) -- Read from C cache (1 bytes @ 0x2000002D) -- Data:  00  returns 0x00 (0000ms, 0297ms total)
T6178 015:925 JLINK_ReadMem (0x2000001C, 0x0004 Bytes, ...) -- Read from C cache (4 bytes @ 0x2000001C) -- Data:  00 00 00 00  returns 0x00 (0000ms, 0297ms total)
T6178 015:928 JLINK_ReadMem (0x080016A8, 0x003C Bytes, ...) -- CPU_ReadMem(128 bytes @ 0x08001680) -- Updating C cache (128 bytes @ 0x08001680) -- Read from C cache (60 bytes @ 0x080016A8) -- Data:  2D E9 F8 4F 00 24 FF F7 E5 FF 00 F0 7B F8 4F F4 ...  returns 0x00 (0002ms, 0299ms total)
T287C 017:583 JLINK_Step() -- Read from C cache (2 bytes @ 0x080016A8) -- Read from C cache (2 bytes @ 0x080016AA) -- Not simulated -- CPU_WriteMem(4 bytes @ 0xE0002008) -- CPU_WriteMem(4 bytes @ 0xE000200C) -- CPU_WriteMem(4 bytes @ 0xE0002010) -- CPU_WriteMem(4 bytes @ 0xE0002014) -- CPU_WriteMem(4 bytes @ 0xE0002018) -- CPU_WriteMem(4 bytes @ 0xE000201C) -- Invalidate MA0 status  returns 0x00 (0010ms, 0309ms total)
T287C 017:593 JLINK_ReadReg(R15)  returns 0x080016AC (0000ms, 0309ms total)
T287C 017:593 JLINK_ReadReg(XPSR)  returns 0x41000000 (0000ms, 0309ms total)
T287C 017:593 JLINK_ReadReg(R0)  returns 0xE000E000 (0000ms, 0309ms total)
T287C 017:593 JLINK_ReadReg(R1)  returns 0x00000001 (0000ms, 0309ms total)
T287C 017:593 JLINK_ReadReg(R2)  returns 0x00010800 (0000ms, 0309ms total)
T287C 017:593 JLINK_ReadReg(R3)  returns 0x01010006 (0000ms, 0309ms total)
T287C 017:593 JLINK_ReadReg(R4)  returns 0x00000000 (0000ms, 0309ms total)
T287C 017:593 JLINK_ReadReg(R5)  returns 0x08002B60 (0000ms, 0309ms total)
T287C 017:593 JLINK_ReadReg(R6)  returns 0x20000029 (0000ms, 0309ms total)
T287C 017:593 JLINK_ReadReg(R7)  returns 0x00000040 (0000ms, 0309ms total)
T287C 017:593 JLINK_ReadReg(R8)  returns 0x00000000 (0000ms, 0309ms total)
T287C 017:593 JLINK_ReadReg(R9)  returns 0x20000160 (0000ms, 0309ms total)
T287C 017:593 JLINK_ReadReg(R10)  returns 0x00000000 (0000ms, 0309ms total)
T287C 017:594 JLINK_ReadReg(R11)  returns 0x00000000 (0000ms, 0309ms total)
T287C 017:594 JLINK_ReadReg(R12)  returns 0x0000000F (0000ms, 0309ms total)
T287C 017:594 JLINK_ReadReg(R13)  returns 0x20000868 (0000ms, 0309ms total)
T287C 017:594 JLINK_ReadReg(R14)  returns 0x08000D5B (0000ms, 0309ms total)
T287C 017:594 JLINK_ReadReg(R15)  returns 0x080016AC (0000ms, 0309ms total)
T287C 017:594 JLINK_ReadReg(XPSR)  returns 0x41000000 (0000ms, 0309ms total)
T287C 017:594 JLINK_ReadReg(MSP)  returns 0x20000868 (0000ms, 0309ms total)
T287C 017:594 JLINK_ReadReg(PSP)  returns 0x20000800 (0000ms, 0309ms total)
T287C 017:594 JLINK_ReadReg(CFBP)  returns 0x00000000 (0000ms, 0309ms total)
T6178 017:594 JLINK_ReadMem (0x2000088C, 0x0004 Bytes, ...) -- CPU_ReadMem(64 bytes @ 0x20000880) -- Updating C cache (64 bytes @ 0x20000880) -- Read from C cache (4 bytes @ 0x2000088C) -- Data:  5B 0D 00 08  returns 0x00 (0001ms, 0310ms total)
T6178 017:595 JLINK_ReadMem (0x2000086C, 0x0004 Bytes, ...) -- CPU_ReadMem(64 bytes @ 0x20000840) -- Updating C cache (64 bytes @ 0x20000840) -- Read from C cache (4 bytes @ 0x2000086C) -- Data:  00 00 00 00  returns 0x00 (0002ms, 0312ms total)
T6178 017:597 JLINK_ReadMem (0x20000870, 0x0004 Bytes, ...) -- Read from C cache (4 bytes @ 0x20000870) -- Data:  60 2B 00 08  returns 0x00 (0000ms, 0312ms total)
T6178 017:597 JLINK_ReadMem (0x20000874, 0x0004 Bytes, ...) -- Read from C cache (4 bytes @ 0x20000874) -- Data:  29 00 00 20  returns 0x00 (0000ms, 0312ms total)
